
T1C94 000:329 SEGGER J-Link V5.10h Log File (0000ms, 0282ms total)
T1C94 000:329 DLL Compiled: Jan 21 2016 19:24:29 (0000ms, 0282ms total)
T1C94 000:329 Logging started @ 2020-09-10 22:37 (0000ms, 0282ms total)
T1C94 000:329 JLINK_SetWarnOutHandler(...) (0000ms, 0282ms total)
T1C94 000:329 JLINK_OpenEx(...)
Firmware: J-Link V9 compiled Apr 20 2018 16:47:26
Hardware: V9.50
S/N: 59503634
Feature(s): GDB, RDI, FlashBP, FlashDL, JFlash  returns O.K. (0272ms, 0554ms total)
T1C94 000:601 JLINK_SetErrorOutHandler(...) (0000ms, 0554ms total)
T1C94 000:601 JLINK_ExecCommand("ProjectFile = "E:\work\project\P1871\source_2\BEE2-SDK-v1.1.0-git\ble\board\evb\ble_central\JLinkSettings.ini"", ...)Device "CORTEX-M4" selected.  returns 0x00 (0008ms, 0562ms total)
T1C94 000:617 JLINK_ExecCommand("Device = ARMCM4_FP", ...)Device "CORTEX-M4" selected.  returns 0x00 (0005ms, 0567ms total)
T1C94 000:622 JLINK_ExecCommand("DisableConnectionTimeout", ...)  returns 0x01 (0000ms, 0567ms total)
T1C94 000:622 JLINK_GetHardwareVersion()  returns 0x17318 (0000ms, 0567ms total)
T1C94 000:622 JLINK_GetDLLVersion()  returns 51008 (0000ms, 0567ms total)
T1C94 000:622 JLINK_GetFirmwareString(...) (0000ms, 0567ms total)
T1C94 000:634 JLINK_GetDLLVersion()  returns 51008 (0000ms, 0567ms total)
T1C94 000:634 JLINK_GetCompileDateTime() (0000ms, 0567ms total)
T1C94 000:637 JLINK_GetFirmwareString(...) (0000ms, 0567ms total)
T1C94 000:640 JLINK_GetHardwareVersion()  returns 0x17318 (0000ms, 0567ms total)
T1C94 000:649 JLINK_TIF_Select(JLINKARM_TIF_SWD)  returns 0x00 (0003ms, 0570ms total)
T1C94 000:652 JLINK_SetSpeed(1000) (0000ms, 0570ms total)
T1C94 000:652 JLINK_GetId() >0x108 TIF>Found SWD-DP with ID 0x2BA01477 >0x0D TIF> >0x28 TIF> >0x0D TIF> >0x28 TIF> >0x0D TIF> >0x28 TIF> >0x0D TIF> >0x28 TIF> >0x0D TIF> >0x21 TIF> >0x0D TIF> >0x28 TIF> >0x0D TIF> >0x28 TIF> >0x0D TIF> >0x21 TIF> >0x0D TIF> >0x21 TIF> >0x0D TIF> >0x21 TIF> >0x0D TIF> >0x28 TIF> >0x0D TIF> >0x28 TIF> >0x0D TIF> >0x28 TIF> >0x0D TIF> >0x21 TIF> >0x0D TIF> >0x21 TIF> >0x0D TIF> >0x28 TIF> >0x0D TIF> >0x21 TIF> >0x0D TIF> >0x21 TIF>Found Cortex-M4 r0p1, Little endian.
 -- CPU_ReadMem(4 bytes @ 0xE000EDF0) -- CPU_WriteMem(4 bytes @ 0xE000EDF0) -- CPU_ReadMem(4 bytes @ 0xE0002000)FPUnit: 6 code (BP) slots and 2 literal slots -- CPU_ReadMem(4 bytes @ 0xE000EDFC) -- CPU_WriteMem(4 bytes @ 0xE000EDFC) -- CPU_ReadMem(4 bytes @ 0xE0001000) -- CPU_WriteMem(4 bytes @ 0xE0001000) -- CPU_ReadMem(4 bytes @ 0xE000ED88) -- CPU_WriteMem(4 bytes @ 0xE000ED88) -- CPU_ReadMem(4 bytes @ 0xE000ED88) -- CPU_WriteMem(4 bytes @ 0xE000ED88)CoreSight components:ROMTbl 0 @ E00FF000
 -- CPU_ReadMem(16 bytes @ 0xE00FF000) -- CPU_ReadMem(16 bytes @ 0xE000EFF0) -- CPU_ReadMem(16 bytes @ 0xE000EFE0)ROMTbl 0 [0]: FFF0F000, CID: B105E00D, PID: 000BB00C SCS -- CPU_ReadMem(16 bytes @ 0xE0001FF0) -- CPU_ReadMem(16 bytes @ 0xE0001FE0)ROMTbl 0 [1]: FFF02000, CID: B105E00D, PID: 003BB002 DWT -- CPU_ReadMem(16 bytes @ 0xE0002FF0) -- CPU_ReadMem(16 bytes @ 0xE0002FE0)ROMTbl 0 [2]: FFF03000, CID: B105E00D, PID: 002BB003 FPB -- CPU_ReadMem(16 bytes @ 0xE0000FF0)
 -- CPU_ReadMem(16 bytes @ 0xE0000FE0)ROMTbl 0 [3]: FFF01000, CID: B105E00D, PID: 003BB001 ITM -- CPU_ReadMem(16 bytes @ 0xE00FF010) -- CPU_ReadMem(16 bytes @ 0xE0040FF0) -- CPU_ReadMem(16 bytes @ 0xE0040FE0)ROMTbl 0 [4]: FFF41000, CID: B105900D, PID: 000BB9A1 TPIU >0x0D TIF> >0x21 TIF>  returns 0x2BA01477 (0077ms, 0647ms total)
T1C94 000:729 JLINK_GetDLLVersion()  returns 51008 (0000ms, 0647ms total)
T1C94 000:729 JLINK_CORE_GetFound()  returns 0xE0000FF (0000ms, 0647ms total)
T1C94 000:729 JLINK_GetDebugInfo(0x100) -- Value=0xE00FF000  returns 0x00 (0000ms, 0647ms total)
T1C94 000:733 JLINK_GetDebugInfo(0x100) -- Value=0xE00FF000  returns 0x00 (0000ms, 0647ms total)
T1C94 000:733 JLINK_GetDebugInfo(0x101) -- Value=0x00000000  returns 0x00 (0000ms, 0647ms total)
T1C94 000:733 JLINK_ReadMem (0xE0041FF0, 0x0010 Bytes, ...) -- CPU is running -- CPU_ReadMem(16 bytes @ 0xE0041FF0) - Data: 00 00 00 00 00 00 00 00 00 00 00 00 00 00 00 00  returns 0x00 (0001ms, 0648ms total)
T1C94 000:734 JLINK_GetDebugInfo(0x102) -- Value=0x00000000  returns 0x00 (0001ms, 0649ms total)
T1C94 000:735 JLINK_GetDebugInfo(0x103) -- Value=0xE0040000  returns 0x00 (0000ms, 0649ms total)
T1C94 000:735 JLINK_GetDebugInfo(0x104) -- Value=0xE0000000  returns 0x00 (0000ms, 0649ms total)
T1C94 000:735 JLINK_GetDebugInfo(0x105) -- Value=0xE0001000  returns 0x00 (0000ms, 0649ms total)
T1C94 000:735 JLINK_GetDebugInfo(0x106) -- Value=0xE0002000  returns 0x00 (0000ms, 0649ms total)
T1C94 000:735 JLINK_GetDebugInfo(0x107) -- Value=0xE000E000  returns 0x00 (0000ms, 0649ms total)
T1C94 000:735 JLINK_GetDebugInfo(0x10C) -- Value=0xE000EDF0  returns 0x00 (0000ms, 0649ms total)
T1C94 000:735 JLINK_ReadMemU32(0xE000EF40, 0x0001 Items, ...) -- CPU is running -- CPU_ReadMem(4 bytes @ 0xE000EF40) - Data: 21 00 11 10  returns 0x01 (0001ms, 0650ms total)
T1C94 000:736 JLINK_ReadMemU32(0xE000EF44, 0x0001 Items, ...) -- CPU is running -- CPU_ReadMem(4 bytes @ 0xE000EF44) - Data: 11 00 00 11  returns 0x01 (0001ms, 0651ms total)
T1C94 000:737 JLINK_ReadMemU32(0xE000ED00, 0x0001 Items, ...) -- CPU is running -- CPU_ReadMem(4 bytes @ 0xE000ED00) - Data: 41 C2 0F 41  returns 0x01 (0001ms, 0652ms total)
T1C94 000:738 JLINK_SetResetType(JLINKARM_RESET_TYPE_NORMAL)  returns JLINKARM_RESET_TYPE_NORMAL (0000ms, 0652ms total)
T1C94 000:738 JLINK_Reset() -- CPU is running -- CPU_WriteMem(4 bytes @ 0xE000EDF0) -- CPU is running -- CPU_WriteMem(4 bytes @ 0xE000EDFC) >0x35 TIF> -- CPU is running -- CPU_WriteMem(4 bytes @ 0xE000ED0C) -- CPU is running -- CPU_ReadMem(4 bytes @ 0xE000EDF0) -- CPU is running -- CPU_ReadMem(4 bytes @ 0xE000EDF0) -- CPU is running -- CPU_WriteMem(4 bytes @ 0xE000EDF0) -- CPU is running -- CPU_WriteMem(4 bytes @ 0xE000EDFC) -- CPU is running -- CPU_ReadMem(4 bytes @ 0xE000EDF0)
 -- CPU_WriteMem(4 bytes @ 0xE0002000) -- CPU_ReadMem(4 bytes @ 0xE000EDFC) -- CPU_ReadMem(4 bytes @ 0xE0001000) (0026ms, 0678ms total)
T1C94 000:764 JLINK_Halt()  returns 0x00 (0000ms, 0678ms total)
T1C94 000:764 JLINK_IsHalted()  returns TRUE (0000ms, 0678ms total)
T1C94 000:764 JLINK_ReadMemU32(0xE000EDF0, 0x0001 Items, ...) -- CPU_ReadMem(4 bytes @ 0xE000EDF0) - Data: 03 00 03 00  returns 0x01 (0001ms, 0679ms total)
T1C94 000:765 JLINK_WriteU32(0xE000EDF0, 0xA05F0003) -- CPU_WriteMem(4 bytes @ 0xE000EDF0)  returns 0x00 (0001ms, 0680ms total)
T1C94 000:766 JLINK_WriteU32(0xE000EDFC, 0x01000000) -- CPU_WriteMem(4 bytes @ 0xE000EDFC)  returns 0x00 (0000ms, 0680ms total)
T1C94 000:778 JLINK_GetHWStatus(...)  returns 0x00 (0000ms, 0680ms total)
T1C94 000:787 JLINK_GetNumBPUnits(Type = 0xFFFFFF00)  returns 0x06 (0000ms, 0680ms total)
T1C94 000:787 JLINK_GetNumBPUnits(Type = 0xF0)  returns 0x2000 (0000ms, 0680ms total)
T1C94 000:787 JLINK_GetNumWPUnits()  returns 0x04 (0000ms, 0680ms total)
T1C94 000:795 JLINK_GetSpeed()  returns 0x3E8 (0001ms, 0681ms total)
T1C94 000:801 JLINK_ReadMemU32(0xE000E004, 0x0001 Items, ...) -- CPU_ReadMem(4 bytes @ 0xE000E004) - Data: 00 00 00 00  returns 0x01 (0001ms, 0682ms total)
T1C94 000:802 JLINK_ReadMemU32(0xE000E004, 0x0001 Items, ...) -- CPU_ReadMem(4 bytes @ 0xE000E004) - Data: 00 00 00 00  returns 0x01 (0001ms, 0683ms total)
T1C94 000:803 JLINK_WriteMem(0xE0001000, 0x001C Bytes, ...) - Data: 01 00 00 00 00 00 00 00 00 00 00 00 00 00 00 00 ... -- CPU_WriteMem(28 bytes @ 0xE0001000)  returns 0x1C (0002ms, 0685ms total)
T1C94 000:805 JLINK_ReadMem (0xE0001000, 0x001C Bytes, ...) -- CPU_ReadMem(28 bytes @ 0xE0001000) - Data: 01 00 00 40 00 00 00 00 00 00 00 00 00 00 00 00 ...  returns 0x00 (0001ms, 0686ms total)
T1C94 000:806 JLINK_Halt()  returns 0x00 (0000ms, 0686ms total)
T1C94 000:806 JLINK_IsHalted()  returns TRUE (0000ms, 0686ms total)
T1C94 000:811 JLINK_WriteMem(0x00200000, 0x1560 Bytes, ...) - Data: 00 BE 0A E0 0D 78 2D 06 68 40 08 24 40 00 00 D3 ... -- CPU_WriteMem(5472 bytes @ 0x00200000)  returns 0x1560 (0071ms, 0757ms total)
T1C94 000:882 JLINK_WriteReg(R0, 0x00800000)  returns 0x00 (0000ms, 0757ms total)
T1C94 000:882 JLINK_WriteReg(R1, 0x00B71B00)  returns 0x00 (0000ms, 0757ms total)
T1C94 000:882 JLINK_WriteReg(R2, 0x00000001)  returns 0x00 (0000ms, 0757ms total)
T1C94 000:882 JLINK_WriteReg(R3, 0x00000000)  returns 0x00 (0000ms, 0757ms total)
T1C94 000:882 JLINK_WriteReg(R4, 0x00000000)  returns 0x00 (0000ms, 0757ms total)
T1C94 000:882 JLINK_WriteReg(R5, 0x00000000)  returns 0x00 (0000ms, 0757ms total)
T1C94 000:882 JLINK_WriteReg(R6, 0x00000000)  returns 0x00 (0000ms, 0757ms total)
T1C94 000:882 JLINK_WriteReg(R7, 0x00000000)  returns 0x00 (0000ms, 0757ms total)
T1C94 000:882 JLINK_WriteReg(R8, 0x00000000)  returns 0x00 (0000ms, 0757ms total)
T1C94 000:882 JLINK_WriteReg(R9, 0x002012E4)  returns 0x00 (0000ms, 0757ms total)
T1C94 000:882 JLINK_WriteReg(R10, 0x00000000)  returns 0x00 (0000ms, 0757ms total)
T1C94 000:882 JLINK_WriteReg(R11, 0x00000000)  returns 0x00 (0000ms, 0757ms total)
T1C94 000:882 JLINK_WriteReg(R12, 0x00000000)  returns 0x00 (0000ms, 0757ms total)
T1C94 000:882 JLINK_WriteReg(R13 (SP), 0x00204000)  returns 0x00 (0000ms, 0757ms total)
T1C94 000:882 JLINK_WriteReg(R14, 0x00200001)  returns 0x00 (0000ms, 0757ms total)
T1C94 000:882 JLINK_WriteReg(R15 (PC), 0x00200054)  returns 0x00 (0000ms, 0757ms total)
T1C94 000:882 JLINK_WriteReg(XPSR, 0x01000000)  returns 0x00 (0000ms, 0757ms total)
T1C94 000:882 JLINK_WriteReg(MSP, 0x00204000)  returns 0x00 (0000ms, 0757ms total)
T1C94 000:882 JLINK_WriteReg(PSP, 0x00204000)  returns 0x00 (0000ms, 0757ms total)
T1C94 000:882 JLINK_WriteReg(CFBP, 0x00000000)  returns 0x00 (0000ms, 0757ms total)
T1C94 000:882 JLINK_SetBPEx(Addr = 0x00200000, Type = 0xFFFFFFF2)  returns 0x00000001 (0000ms, 0757ms total)
T1C94 000:882 JLINK_Go() -- CPU_WriteMem(4 bytes @ 0xE0002000) -- CPU_ReadMem(4 bytes @ 0xE0001000) -- CPU_WriteMem(4 bytes @ 0xE0002008) -- CPU_WriteMem(4 bytes @ 0xE000200C) -- CPU_WriteMem(4 bytes @ 0xE0002010) -- CPU_WriteMem(4 bytes @ 0xE0002014) -- CPU_WriteMem(4 bytes @ 0xE0002018) -- CPU_WriteMem(4 bytes @ 0xE000201C) -- CPU_WriteMem(4 bytes @ 0xE0001004) (0010ms, 0767ms total)
T1C94 000:892 JLINK_IsHalted()  returns FALSE (0001ms, 0768ms total)
T1C94 000:942 JLINK_IsHalted()  returns TRUE (0007ms, 0774ms total)
T1C94 000:949 JLINK_ReadReg(R15 (PC))  returns 0x00200000 (0000ms, 0767ms total)
T1C94 000:949 JLINK_ClrBPEx(BPHandle = 0x00000001)  returns 0x00 (0000ms, 0767ms total)
T1C94 000:949 JLINK_ReadReg(R0)  returns 0x00000000 (0000ms, 0767ms total)
T1C94 000:949 JLINK_WriteReg(R0, 0x0080E000)  returns 0x00 (0000ms, 0767ms total)
T1C94 000:949 JLINK_WriteReg(R1, 0x00001000)  returns 0x00 (0000ms, 0767ms total)
T1C94 000:949 JLINK_WriteReg(R2, 0x000000FF)  returns 0x00 (0000ms, 0767ms total)
T1C94 000:949 JLINK_WriteReg(R3, 0x00000000)  returns 0x00 (0000ms, 0767ms total)
T1C94 000:949 JLINK_WriteReg(R4, 0x00000000)  returns 0x00 (0000ms, 0767ms total)
T1C94 000:949 JLINK_WriteReg(R5, 0x00000000)  returns 0x00 (0000ms, 0767ms total)
T1C94 000:949 JLINK_WriteReg(R6, 0x00000000)  returns 0x00 (0000ms, 0767ms total)
T1C94 000:949 JLINK_WriteReg(R7, 0x00000000)  returns 0x00 (0000ms, 0767ms total)
T1C94 000:949 JLINK_WriteReg(R8, 0x00000000)  returns 0x00 (0000ms, 0767ms total)
T1C94 000:949 JLINK_WriteReg(R9, 0x002012E4)  returns 0x00 (0000ms, 0767ms total)
T1C94 000:949 JLINK_WriteReg(R10, 0x00000000)  returns 0x00 (0000ms, 0767ms total)
T1C94 000:949 JLINK_WriteReg(R11, 0x00000000)  returns 0x00 (0000ms, 0767ms total)
T1C94 000:949 JLINK_WriteReg(R12, 0x00000000)  returns 0x00 (0000ms, 0767ms total)
T1C94 000:949 JLINK_WriteReg(R13 (SP), 0x00204000)  returns 0x00 (0000ms, 0767ms total)
T1C94 000:949 JLINK_WriteReg(R14, 0x00200001)  returns 0x00 (0000ms, 0767ms total)
T1C94 000:949 JLINK_WriteReg(R15 (PC), 0x00200020)  returns 0x00 (0000ms, 0767ms total)
T1C94 000:949 JLINK_WriteReg(XPSR, 0x01000000)  returns 0x00 (0000ms, 0767ms total)
T1C94 000:949 JLINK_WriteReg(MSP, 0x00204000)  returns 0x00 (0000ms, 0767ms total)
T1C94 000:949 JLINK_WriteReg(PSP, 0x00204000)  returns 0x00 (0000ms, 0767ms total)
T1C94 000:950 JLINK_WriteReg(CFBP, 0x00000000)  returns 0x00 (0000ms, 0768ms total)
T1C94 000:950 JLINK_SetBPEx(Addr = 0x00200000, Type = 0xFFFFFFF2)  returns 0x00000002 (0000ms, 0768ms total)
T1C94 000:950 JLINK_Go() -- CPU_WriteMem(4 bytes @ 0xE0002000) -- CPU_ReadMem(4 bytes @ 0xE0001000) (0006ms, 0774ms total)
T1C94 000:956 JLINK_IsHalted()  returns TRUE (0007ms, 0781ms total)
T1C94 000:963 JLINK_ReadReg(R15 (PC))  returns 0x00200000 (0000ms, 0774ms total)
T1C94 000:963 JLINK_ClrBPEx(BPHandle = 0x00000002)  returns 0x00 (0000ms, 0774ms total)
T1C94 000:963 JLINK_ReadReg(R0)  returns 0x00000001 (0000ms, 0774ms total)
T1C94 000:963 JLINK_WriteReg(R0, 0x0080E000)  returns 0x00 (0000ms, 0774ms total)
T1C94 000:963 JLINK_WriteReg(R1, 0x00001000)  returns 0x00 (0000ms, 0774ms total)
T1C94 000:963 JLINK_WriteReg(R2, 0x000000FF)  returns 0x00 (0000ms, 0774ms total)
T1C94 000:963 JLINK_WriteReg(R3, 0x00000000)  returns 0x00 (0000ms, 0774ms total)
T1C94 000:963 JLINK_WriteReg(R4, 0x00000000)  returns 0x00 (0000ms, 0774ms total)
T1C94 000:963 JLINK_WriteReg(R5, 0x00000000)  returns 0x00 (0000ms, 0774ms total)
T1C94 000:963 JLINK_WriteReg(R6, 0x00000000)  returns 0x00 (0000ms, 0774ms total)
T1C94 000:963 JLINK_WriteReg(R7, 0x00000000)  returns 0x00 (0000ms, 0774ms total)
T1C94 000:963 JLINK_WriteReg(R8, 0x00000000)  returns 0x00 (0000ms, 0774ms total)
T1C94 000:963 JLINK_WriteReg(R9, 0x002012E4)  returns 0x00 (0000ms, 0774ms total)
T1C94 000:963 JLINK_WriteReg(R10, 0x00000000)  returns 0x00 (0000ms, 0774ms total)
T1C94 000:963 JLINK_WriteReg(R11, 0x00000000)  returns 0x00 (0000ms, 0774ms total)
T1C94 000:963 JLINK_WriteReg(R12, 0x00000000)  returns 0x00 (0000ms, 0774ms total)
T1C94 000:963 JLINK_WriteReg(R13 (SP), 0x00204000)  returns 0x00 (0000ms, 0774ms total)
T1C94 000:963 JLINK_WriteReg(R14, 0x00200001)  returns 0x00 (0000ms, 0774ms total)
T1C94 000:963 JLINK_WriteReg(R15 (PC), 0x00200094)  returns 0x00 (0000ms, 0774ms total)
T1C94 000:963 JLINK_WriteReg(XPSR, 0x01000000)  returns 0x00 (0000ms, 0774ms total)
T1C94 000:963 JLINK_WriteReg(MSP, 0x00204000)  returns 0x00 (0000ms, 0774ms total)
T1C94 000:963 JLINK_WriteReg(PSP, 0x00204000)  returns 0x00 (0000ms, 0774ms total)
T1C94 000:963 JLINK_WriteReg(CFBP, 0x00000000)  returns 0x00 (0000ms, 0774ms total)
T1C94 000:963 JLINK_SetBPEx(Addr = 0x00200000, Type = 0xFFFFFFF2)  returns 0x00000003 (0000ms, 0774ms total)
T1C94 000:963 JLINK_Go() -- CPU_WriteMem(4 bytes @ 0xE0002000) -- CPU_ReadMem(4 bytes @ 0xE0001000) (0005ms, 0779ms total)
T1C94 000:968 JLINK_IsHalted()  returns FALSE (0001ms, 0780ms total)
T1C94 000:970 JLINK_IsHalted()  returns FALSE (0001ms, 0780ms total)
T1C94 000:972 JLINK_IsHalted()  returns FALSE (0001ms, 0780ms total)
T1C94 000:974 JLINK_IsHalted()  returns FALSE (0001ms, 0780ms total)
T1C94 000:976 JLINK_IsHalted()  returns FALSE (0001ms, 0780ms total)
T1C94 000:978 JLINK_IsHalted()  returns FALSE (0000ms, 0779ms total)
T1C94 000:979 JLINK_IsHalted()  returns FALSE (0000ms, 0779ms total)
T1C94 000:980 JLINK_IsHalted()  returns FALSE (0000ms, 0779ms total)
T1C94 000:981 JLINK_IsHalted()  returns FALSE (0000ms, 0779ms total)
T1C94 000:982 JLINK_IsHalted()  returns FALSE (0000ms, 0779ms total)
T1C94 000:983 JLINK_IsHalted()  returns FALSE (0000ms, 0779ms total)
T1C94 000:984 JLINK_IsHalted()  returns FALSE (0000ms, 0779ms total)
T1C94 000:985 JLINK_IsHalted()  returns FALSE (0000ms, 0779ms total)
T1C94 000:986 JLINK_IsHalted()  returns FALSE (0000ms, 0779ms total)
T1C94 000:987 JLINK_IsHalted()  returns FALSE (0000ms, 0779ms total)
T1C94 000:988 JLINK_IsHalted()  returns FALSE (0000ms, 0779ms total)
T1C94 000:989 JLINK_IsHalted()  returns FALSE (0000ms, 0779ms total)
T1C94 000:990 JLINK_IsHalted()  returns FALSE (0000ms, 0779ms total)
T1C94 000:991 JLINK_IsHalted()  returns FALSE (0000ms, 0779ms total)
T1C94 000:992 JLINK_IsHalted()  returns FALSE (0000ms, 0779ms total)
T1C94 000:993 JLINK_IsHalted()  returns FALSE (0000ms, 0779ms total)
T1C94 000:994 JLINK_IsHalted()  returns FALSE (0000ms, 0779ms total)
T1C94 000:997 JLINK_IsHalted()  returns FALSE (0000ms, 0779ms total)
T1C94 000:998 JLINK_IsHalted()  returns FALSE (0000ms, 0779ms total)
T1C94 000:999 JLINK_IsHalted()  returns FALSE (0000ms, 0779ms total)
T1C94 001:000 JLINK_IsHalted()  returns FALSE (0001ms, 0780ms total)
T1C94 001:002 JLINK_IsHalted()  returns FALSE (0001ms, 0780ms total)
T1C94 001:004 JLINK_IsHalted()  returns FALSE (0001ms, 0780ms total)
T1C94 001:006 JLINK_IsHalted()  returns FALSE (0001ms, 0780ms total)
T1C94 001:008 JLINK_IsHalted()  returns FALSE (0001ms, 0780ms total)
T1C94 001:010 JLINK_IsHalted()  returns FALSE (0001ms, 0780ms total)
T1C94 001:012 JLINK_IsHalted()  returns FALSE (0001ms, 0780ms total)
T1C94 001:016 JLINK_IsHalted()  returns FALSE (0000ms, 0779ms total)
T1C94 001:017 JLINK_IsHalted()  returns FALSE (0001ms, 0780ms total)
T1C94 001:019 JLINK_IsHalted()  returns FALSE (0001ms, 0780ms total)
T1C94 001:021 JLINK_IsHalted()  returns TRUE (0007ms, 0786ms total)
T1C94 001:028 JLINK_ReadReg(R15 (PC))  returns 0x00200000 (0000ms, 0779ms total)
T1C94 001:028 JLINK_ClrBPEx(BPHandle = 0x00000003)  returns 0x00 (0000ms, 0779ms total)
T1C94 001:028 JLINK_ReadReg(R0)  returns 0x00000000 (0000ms, 0779ms total)
T1C94 001:028 JLINK_WriteReg(R0, 0x0080F000)  returns 0x00 (0000ms, 0779ms total)
T1C94 001:028 JLINK_WriteReg(R1, 0x00001000)  returns 0x00 (0000ms, 0779ms total)
T1C94 001:028 JLINK_WriteReg(R2, 0x000000FF)  returns 0x00 (0000ms, 0779ms total)
T1C94 001:028 JLINK_WriteReg(R3, 0x00000000)  returns 0x00 (0000ms, 0779ms total)
T1C94 001:028 JLINK_WriteReg(R4, 0x00000000)  returns 0x00 (0000ms, 0779ms total)
T1C94 001:029 JLINK_WriteReg(R5, 0x00000000)  returns 0x00 (0000ms, 0779ms total)
T1C94 001:029 JLINK_WriteReg(R6, 0x00000000)  returns 0x00 (0000ms, 0779ms total)
T1C94 001:029 JLINK_WriteReg(R7, 0x00000000)  returns 0x00 (0000ms, 0779ms total)
T1C94 001:029 JLINK_WriteReg(R8, 0x00000000)  returns 0x00 (0000ms, 0779ms total)
T1C94 001:029 JLINK_WriteReg(R9, 0x002012E4)  returns 0x00 (0000ms, 0779ms total)
T1C94 001:029 JLINK_WriteReg(R10, 0x00000000)  returns 0x00 (0000ms, 0779ms total)
T1C94 001:029 JLINK_WriteReg(R11, 0x00000000)  returns 0x00 (0000ms, 0779ms total)
T1C94 001:029 JLINK_WriteReg(R12, 0x00000000)  returns 0x00 (0000ms, 0779ms total)
T1C94 001:029 JLINK_WriteReg(R13 (SP), 0x00204000)  returns 0x00 (0000ms, 0779ms total)
T1C94 001:029 JLINK_WriteReg(R14, 0x00200001)  returns 0x00 (0000ms, 0779ms total)
T1C94 001:029 JLINK_WriteReg(R15 (PC), 0x00200020)  returns 0x00 (0000ms, 0779ms total)
T1C94 001:029 JLINK_WriteReg(XPSR, 0x01000000)  returns 0x00 (0000ms, 0779ms total)
T1C94 001:029 JLINK_WriteReg(MSP, 0x00204000)  returns 0x00 (0000ms, 0779ms total)
T1C94 001:029 JLINK_WriteReg(PSP, 0x00204000)  returns 0x00 (0000ms, 0779ms total)
T1C94 001:029 JLINK_WriteReg(CFBP, 0x00000000)  returns 0x00 (0000ms, 0779ms total)
T1C94 001:029 JLINK_SetBPEx(Addr = 0x00200000, Type = 0xFFFFFFF2)  returns 0x00000004 (0000ms, 0779ms total)
T1C94 001:029 JLINK_Go() -- CPU_WriteMem(4 bytes @ 0xE0002000) -- CPU_ReadMem(4 bytes @ 0xE0001000) (0006ms, 0785ms total)
T1C94 001:035 JLINK_IsHalted()  returns TRUE (0007ms, 0792ms total)
T1C94 001:042 JLINK_ReadReg(R15 (PC))  returns 0x00200000 (0000ms, 0785ms total)
T1C94 001:042 JLINK_ClrBPEx(BPHandle = 0x00000004)  returns 0x00 (0000ms, 0785ms total)
T1C94 001:042 JLINK_ReadReg(R0)  returns 0x00000001 (0000ms, 0785ms total)
T1C94 001:042 JLINK_WriteReg(R0, 0x0080F000)  returns 0x00 (0000ms, 0785ms total)
T1C94 001:042 JLINK_WriteReg(R1, 0x00001000)  returns 0x00 (0000ms, 0785ms total)
T1C94 001:042 JLINK_WriteReg(R2, 0x000000FF)  returns 0x00 (0000ms, 0785ms total)
T1C94 001:042 JLINK_WriteReg(R3, 0x00000000)  returns 0x00 (0000ms, 0785ms total)
T1C94 001:042 JLINK_WriteReg(R4, 0x00000000)  returns 0x00 (0000ms, 0785ms total)
T1C94 001:042 JLINK_WriteReg(R5, 0x00000000)  returns 0x00 (0000ms, 0785ms total)
T1C94 001:042 JLINK_WriteReg(R6, 0x00000000)  returns 0x00 (0000ms, 0785ms total)
T1C94 001:042 JLINK_WriteReg(R7, 0x00000000)  returns 0x00 (0000ms, 0785ms total)
T1C94 001:042 JLINK_WriteReg(R8, 0x00000000)  returns 0x00 (0000ms, 0785ms total)
T1C94 001:042 JLINK_WriteReg(R9, 0x002012E4)  returns 0x00 (0000ms, 0785ms total)
T1C94 001:042 JLINK_WriteReg(R10, 0x00000000)  returns 0x00 (0000ms, 0785ms total)
T1C94 001:042 JLINK_WriteReg(R11, 0x00000000)  returns 0x00 (0000ms, 0785ms total)
T1C94 001:042 JLINK_WriteReg(R12, 0x00000000)  returns 0x00 (0000ms, 0785ms total)
T1C94 001:042 JLINK_WriteReg(R13 (SP), 0x00204000)  returns 0x00 (0000ms, 0785ms total)
T1C94 001:042 JLINK_WriteReg(R14, 0x00200001)  returns 0x00 (0000ms, 0785ms total)
T1C94 001:042 JLINK_WriteReg(R15 (PC), 0x00200094)  returns 0x00 (0000ms, 0785ms total)
T1C94 001:042 JLINK_WriteReg(XPSR, 0x01000000)  returns 0x00 (0000ms, 0785ms total)
T1C94 001:042 JLINK_WriteReg(MSP, 0x00204000)  returns 0x00 (0000ms, 0785ms total)
T1C94 001:042 JLINK_WriteReg(PSP, 0x00204000)  returns 0x00 (0000ms, 0785ms total)
T1C94 001:042 JLINK_WriteReg(CFBP, 0x00000000)  returns 0x00 (0000ms, 0785ms total)
T1C94 001:042 JLINK_SetBPEx(Addr = 0x00200000, Type = 0xFFFFFFF2)  returns 0x00000005 (0000ms, 0785ms total)
T1C94 001:042 JLINK_Go() -- CPU_WriteMem(4 bytes @ 0xE0002000) -- CPU_ReadMem(4 bytes @ 0xE0001000) (0006ms, 0791ms total)
T1C94 001:048 JLINK_IsHalted()  returns FALSE (0001ms, 0792ms total)
T1C94 001:062 JLINK_IsHalted()  returns FALSE (0001ms, 0792ms total)
T1C94 001:064 JLINK_IsHalted()  returns FALSE (0001ms, 0792ms total)
T1C94 001:066 JLINK_IsHalted()  returns FALSE (0001ms, 0792ms total)
T1C94 001:068 JLINK_IsHalted()  returns FALSE (0001ms, 0792ms total)
T1C94 001:070 JLINK_IsHalted()  returns FALSE (0001ms, 0792ms total)
T1C94 001:072 JLINK_IsHalted()  returns FALSE (0001ms, 0792ms total)
T1C94 001:074 JLINK_IsHalted()  returns FALSE (0001ms, 0792ms total)
T1C94 001:076 JLINK_IsHalted()  returns FALSE (0001ms, 0792ms total)
T1C94 001:078 JLINK_IsHalted()  returns FALSE (0000ms, 0791ms total)
T1C94 001:080 JLINK_IsHalted()  returns FALSE (0001ms, 0792ms total)
T1C94 001:082 JLINK_IsHalted()  returns FALSE (0001ms, 0792ms total)
T1C94 001:084 JLINK_IsHalted()  returns FALSE (0001ms, 0792ms total)
T1C94 001:086 JLINK_IsHalted()  returns FALSE (0001ms, 0792ms total)
T1C94 001:088 JLINK_IsHalted()  returns FALSE (0001ms, 0792ms total)
T1C94 001:090 JLINK_IsHalted()  returns FALSE (0001ms, 0792ms total)
T1C94 001:092 JLINK_IsHalted()  returns FALSE (0001ms, 0792ms total)
T1C94 001:094 JLINK_IsHalted()  returns FALSE (0001ms, 0792ms total)
T1C94 001:096 JLINK_IsHalted()  returns FALSE (0001ms, 0792ms total)
T1C94 001:098 JLINK_IsHalted()  returns FALSE (0001ms, 0792ms total)
T1C94 001:100 JLINK_IsHalted()  returns FALSE (0000ms, 0791ms total)
T1C94 001:102 JLINK_IsHalted()  returns TRUE (0007ms, 0798ms total)
T1C94 001:109 JLINK_ReadReg(R15 (PC))  returns 0x00200000 (0000ms, 0791ms total)
T1C94 001:109 JLINK_ClrBPEx(BPHandle = 0x00000005)  returns 0x00 (0000ms, 0791ms total)
T1C94 001:109 JLINK_ReadReg(R0)  returns 0x00000000 (0000ms, 0791ms total)
T1C94 001:109 JLINK_WriteReg(R0, 0x00810000)  returns 0x00 (0000ms, 0791ms total)
T1C94 001:109 JLINK_WriteReg(R1, 0x00001000)  returns 0x00 (0000ms, 0791ms total)
T1C94 001:109 JLINK_WriteReg(R2, 0x000000FF)  returns 0x00 (0000ms, 0791ms total)
T1C94 001:109 JLINK_WriteReg(R3, 0x00000000)  returns 0x00 (0000ms, 0791ms total)
T1C94 001:109 JLINK_WriteReg(R4, 0x00000000)  returns 0x00 (0000ms, 0791ms total)
T1C94 001:109 JLINK_WriteReg(R5, 0x00000000)  returns 0x00 (0000ms, 0791ms total)
T1C94 001:109 JLINK_WriteReg(R6, 0x00000000)  returns 0x00 (0000ms, 0791ms total)
T1C94 001:109 JLINK_WriteReg(R7, 0x00000000)  returns 0x00 (0000ms, 0791ms total)
T1C94 001:110 JLINK_WriteReg(R8, 0x00000000)  returns 0x00 (0000ms, 0791ms total)
T1C94 001:110 JLINK_WriteReg(R9, 0x002012E4)  returns 0x00 (0000ms, 0791ms total)
T1C94 001:110 JLINK_WriteReg(R10, 0x00000000)  returns 0x00 (0000ms, 0791ms total)
T1C94 001:110 JLINK_WriteReg(R11, 0x00000000)  returns 0x00 (0000ms, 0791ms total)
T1C94 001:110 JLINK_WriteReg(R12, 0x00000000)  returns 0x00 (0000ms, 0791ms total)
T1C94 001:110 JLINK_WriteReg(R13 (SP), 0x00204000)  returns 0x00 (0000ms, 0791ms total)
T1C94 001:110 JLINK_WriteReg(R14, 0x00200001)  returns 0x00 (0000ms, 0791ms total)
T1C94 001:110 JLINK_WriteReg(R15 (PC), 0x00200020)  returns 0x00 (0000ms, 0791ms total)
T1C94 001:110 JLINK_WriteReg(XPSR, 0x01000000)  returns 0x00 (0000ms, 0791ms total)
T1C94 001:110 JLINK_WriteReg(MSP, 0x00204000)  returns 0x00 (0000ms, 0791ms total)
T1C94 001:110 JLINK_WriteReg(PSP, 0x00204000)  returns 0x00 (0000ms, 0791ms total)
T1C94 001:110 JLINK_WriteReg(CFBP, 0x00000000)  returns 0x00 (0000ms, 0791ms total)
T1C94 001:110 JLINK_SetBPEx(Addr = 0x00200000, Type = 0xFFFFFFF2)  returns 0x00000006 (0000ms, 0791ms total)
T1C94 001:110 JLINK_Go() -- CPU_WriteMem(4 bytes @ 0xE0002000) -- CPU_ReadMem(4 bytes @ 0xE0001000) (0006ms, 0797ms total)
T1C94 001:116 JLINK_IsHalted()  returns TRUE (0007ms, 0804ms total)
T1C94 001:123 JLINK_ReadReg(R15 (PC))  returns 0x00200000 (0000ms, 0797ms total)
T1C94 001:123 JLINK_ClrBPEx(BPHandle = 0x00000006)  returns 0x00 (0000ms, 0797ms total)
T1C94 001:123 JLINK_ReadReg(R0)  returns 0x00000001 (0000ms, 0797ms total)
T1C94 001:123 JLINK_WriteReg(R0, 0x00810000)  returns 0x00 (0000ms, 0797ms total)
T1C94 001:123 JLINK_WriteReg(R1, 0x00001000)  returns 0x00 (0000ms, 0797ms total)
T1C94 001:123 JLINK_WriteReg(R2, 0x000000FF)  returns 0x00 (0000ms, 0797ms total)
T1C94 001:123 JLINK_WriteReg(R3, 0x00000000)  returns 0x00 (0000ms, 0797ms total)
T1C94 001:123 JLINK_WriteReg(R4, 0x00000000)  returns 0x00 (0000ms, 0797ms total)
T1C94 001:123 JLINK_WriteReg(R5, 0x00000000)  returns 0x00 (0000ms, 0797ms total)
T1C94 001:123 JLINK_WriteReg(R6, 0x00000000)  returns 0x00 (0000ms, 0797ms total)
T1C94 001:123 JLINK_WriteReg(R7, 0x00000000)  returns 0x00 (0000ms, 0797ms total)
T1C94 001:123 JLINK_WriteReg(R8, 0x00000000)  returns 0x00 (0000ms, 0797ms total)
T1C94 001:123 JLINK_WriteReg(R9, 0x002012E4)  returns 0x00 (0000ms, 0797ms total)
T1C94 001:123 JLINK_WriteReg(R10, 0x00000000)  returns 0x00 (0000ms, 0797ms total)
T1C94 001:123 JLINK_WriteReg(R11, 0x00000000)  returns 0x00 (0000ms, 0797ms total)
T1C94 001:123 JLINK_WriteReg(R12, 0x00000000)  returns 0x00 (0000ms, 0797ms total)
T1C94 001:123 JLINK_WriteReg(R13 (SP), 0x00204000)  returns 0x00 (0000ms, 0797ms total)
T1C94 001:123 JLINK_WriteReg(R14, 0x00200001)  returns 0x00 (0000ms, 0797ms total)
T1C94 001:123 JLINK_WriteReg(R15 (PC), 0x00200094)  returns 0x00 (0000ms, 0797ms total)
T1C94 001:123 JLINK_WriteReg(XPSR, 0x01000000)  returns 0x00 (0000ms, 0797ms total)
T1C94 001:123 JLINK_WriteReg(MSP, 0x00204000)  returns 0x00 (0000ms, 0797ms total)
T1C94 001:123 JLINK_WriteReg(PSP, 0x00204000)  returns 0x00 (0000ms, 0797ms total)
T1C94 001:123 JLINK_WriteReg(CFBP, 0x00000000)  returns 0x00 (0000ms, 0797ms total)
T1C94 001:123 JLINK_SetBPEx(Addr = 0x00200000, Type = 0xFFFFFFF2)  returns 0x00000007 (0000ms, 0797ms total)
T1C94 001:123 JLINK_Go() -- CPU_WriteMem(4 bytes @ 0xE0002000) -- CPU_ReadMem(4 bytes @ 0xE0001000) (0005ms, 0802ms total)
T1C94 001:128 JLINK_IsHalted()  returns FALSE (0001ms, 0803ms total)
T1C94 001:130 JLINK_IsHalted()  returns FALSE (0000ms, 0802ms total)
T1C94 001:132 JLINK_IsHalted()  returns FALSE (0001ms, 0803ms total)
T1C94 001:134 JLINK_IsHalted()  returns FALSE (0001ms, 0803ms total)
T1C94 001:136 JLINK_IsHalted()  returns FALSE (0001ms, 0803ms total)
T1C94 001:149 JLINK_IsHalted()  returns FALSE (0001ms, 0803ms total)
T1C94 001:151 JLINK_IsHalted()  returns FALSE (0001ms, 0803ms total)
T1C94 001:153 JLINK_IsHalted()  returns FALSE (0001ms, 0803ms total)
T1C94 001:155 JLINK_IsHalted()  returns FALSE (0001ms, 0803ms total)
T1C94 001:157 JLINK_IsHalted()  returns FALSE (0001ms, 0803ms total)
T1C94 001:159 JLINK_IsHalted()  returns FALSE (0001ms, 0803ms total)
T1C94 001:161 JLINK_IsHalted()  returns FALSE (0000ms, 0802ms total)
T1C94 001:162 JLINK_IsHalted()  returns FALSE (0000ms, 0802ms total)
T1C94 001:163 JLINK_IsHalted()  returns FALSE (0000ms, 0802ms total)
T1C94 001:164 JLINK_IsHalted()  returns FALSE (0000ms, 0802ms total)
T1C94 001:165 JLINK_IsHalted()  returns FALSE (0000ms, 0802ms total)
T1C94 001:166 JLINK_IsHalted()  returns FALSE (0000ms, 0802ms total)
T1C94 001:168 JLINK_IsHalted()  returns FALSE (0001ms, 0803ms total)
T1C94 001:170 JLINK_IsHalted()  returns FALSE (0001ms, 0803ms total)
T1C94 001:172 JLINK_IsHalted()  returns FALSE (0001ms, 0803ms total)
T1C94 001:174 JLINK_IsHalted()  returns FALSE (0001ms, 0803ms total)
T1C94 001:176 JLINK_IsHalted()  returns FALSE (0001ms, 0803ms total)
T1C94 001:178 JLINK_IsHalted()  returns FALSE (0001ms, 0803ms total)
T1C94 001:180 JLINK_IsHalted()  returns FALSE (0001ms, 0803ms total)
T1C94 001:182 JLINK_IsHalted()  returns FALSE (0001ms, 0803ms total)
T1C94 001:184 JLINK_IsHalted()  returns FALSE (0001ms, 0803ms total)
T1C94 001:186 JLINK_IsHalted()  returns TRUE (0007ms, 0809ms total)
T1C94 001:193 JLINK_ReadReg(R15 (PC))  returns 0x00200000 (0000ms, 0802ms total)
T1C94 001:193 JLINK_ClrBPEx(BPHandle = 0x00000007)  returns 0x00 (0000ms, 0802ms total)
T1C94 001:193 JLINK_ReadReg(R0)  returns 0x00000000 (0000ms, 0802ms total)
T1C94 001:193 JLINK_WriteReg(R0, 0x00811000)  returns 0x00 (0000ms, 0802ms total)
T1C94 001:193 JLINK_WriteReg(R1, 0x00001000)  returns 0x00 (0000ms, 0802ms total)
T1C94 001:193 JLINK_WriteReg(R2, 0x000000FF)  returns 0x00 (0000ms, 0802ms total)
T1C94 001:193 JLINK_WriteReg(R3, 0x00000000)  returns 0x00 (0000ms, 0802ms total)
T1C94 001:193 JLINK_WriteReg(R4, 0x00000000)  returns 0x00 (0000ms, 0802ms total)
T1C94 001:193 JLINK_WriteReg(R5, 0x00000000)  returns 0x00 (0000ms, 0802ms total)
T1C94 001:193 JLINK_WriteReg(R6, 0x00000000)  returns 0x00 (0000ms, 0802ms total)
T1C94 001:193 JLINK_WriteReg(R7, 0x00000000)  returns 0x00 (0000ms, 0802ms total)
T1C94 001:193 JLINK_WriteReg(R8, 0x00000000)  returns 0x00 (0000ms, 0802ms total)
T1C94 001:193 JLINK_WriteReg(R9, 0x002012E4)  returns 0x00 (0000ms, 0802ms total)
T1C94 001:193 JLINK_WriteReg(R10, 0x00000000)  returns 0x00 (0000ms, 0802ms total)
T1C94 001:194 JLINK_WriteReg(R11, 0x00000000)  returns 0x00 (0000ms, 0803ms total)
T1C94 001:194 JLINK_WriteReg(R12, 0x00000000)  returns 0x00 (0000ms, 0803ms total)
T1C94 001:194 JLINK_WriteReg(R13 (SP), 0x00204000)  returns 0x00 (0000ms, 0803ms total)
T1C94 001:194 JLINK_WriteReg(R14, 0x00200001)  returns 0x00 (0000ms, 0803ms total)
T1C94 001:194 JLINK_WriteReg(R15 (PC), 0x00200020)  returns 0x00 (0000ms, 0803ms total)
T1C94 001:194 JLINK_WriteReg(XPSR, 0x01000000)  returns 0x00 (0000ms, 0803ms total)
T1C94 001:194 JLINK_WriteReg(MSP, 0x00204000)  returns 0x00 (0000ms, 0803ms total)
T1C94 001:194 JLINK_WriteReg(PSP, 0x00204000)  returns 0x00 (0000ms, 0803ms total)
T1C94 001:194 JLINK_WriteReg(CFBP, 0x00000000)  returns 0x00 (0000ms, 0803ms total)
T1C94 001:194 JLINK_SetBPEx(Addr = 0x00200000, Type = 0xFFFFFFF2)  returns 0x00000008 (0000ms, 0803ms total)
T1C94 001:194 JLINK_Go() -- CPU_WriteMem(4 bytes @ 0xE0002000) -- CPU_ReadMem(4 bytes @ 0xE0001000) (0005ms, 0808ms total)
T1C94 001:199 JLINK_IsHalted()  returns TRUE (0007ms, 0815ms total)
T1C94 001:206 JLINK_ReadReg(R15 (PC))  returns 0x00200000 (0000ms, 0808ms total)
T1C94 001:206 JLINK_ClrBPEx(BPHandle = 0x00000008)  returns 0x00 (0000ms, 0808ms total)
T1C94 001:206 JLINK_ReadReg(R0)  returns 0x00000001 (0000ms, 0808ms total)
T1C94 001:206 JLINK_WriteReg(R0, 0x00811000)  returns 0x00 (0000ms, 0808ms total)
T1C94 001:206 JLINK_WriteReg(R1, 0x00001000)  returns 0x00 (0000ms, 0808ms total)
T1C94 001:206 JLINK_WriteReg(R2, 0x000000FF)  returns 0x00 (0000ms, 0808ms total)
T1C94 001:206 JLINK_WriteReg(R3, 0x00000000)  returns 0x00 (0000ms, 0808ms total)
T1C94 001:206 JLINK_WriteReg(R4, 0x00000000)  returns 0x00 (0001ms, 0809ms total)
T1C94 001:207 JLINK_WriteReg(R5, 0x00000000)  returns 0x00 (0000ms, 0809ms total)
T1C94 001:207 JLINK_WriteReg(R6, 0x00000000)  returns 0x00 (0000ms, 0809ms total)
T1C94 001:207 JLINK_WriteReg(R7, 0x00000000)  returns 0x00 (0000ms, 0809ms total)
T1C94 001:207 JLINK_WriteReg(R8, 0x00000000)  returns 0x00 (0000ms, 0809ms total)
T1C94 001:207 JLINK_WriteReg(R9, 0x002012E4)  returns 0x00 (0000ms, 0809ms total)
T1C94 001:207 JLINK_WriteReg(R10, 0x00000000)  returns 0x00 (0000ms, 0809ms total)
T1C94 001:207 JLINK_WriteReg(R11, 0x00000000)  returns 0x00 (0000ms, 0809ms total)
T1C94 001:207 JLINK_WriteReg(R12, 0x00000000)  returns 0x00 (0000ms, 0809ms total)
T1C94 001:207 JLINK_WriteReg(R13 (SP), 0x00204000)  returns 0x00 (0000ms, 0809ms total)
T1C94 001:207 JLINK_WriteReg(R14, 0x00200001)  returns 0x00 (0000ms, 0809ms total)
T1C94 001:207 JLINK_WriteReg(R15 (PC), 0x00200094)  returns 0x00 (0000ms, 0809ms total)
T1C94 001:207 JLINK_WriteReg(XPSR, 0x01000000)  returns 0x00 (0000ms, 0809ms total)
T1C94 001:207 JLINK_WriteReg(MSP, 0x00204000)  returns 0x00 (0000ms, 0809ms total)
T1C94 001:207 JLINK_WriteReg(PSP, 0x00204000)  returns 0x00 (0000ms, 0809ms total)
T1C94 001:207 JLINK_WriteReg(CFBP, 0x00000000)  returns 0x00 (0000ms, 0809ms total)
T1C94 001:207 JLINK_SetBPEx(Addr = 0x00200000, Type = 0xFFFFFFF2)  returns 0x00000009 (0000ms, 0809ms total)
T1C94 001:207 JLINK_Go() -- CPU_WriteMem(4 bytes @ 0xE0002000) -- CPU_ReadMem(4 bytes @ 0xE0001000) (0005ms, 0814ms total)
T1C94 001:212 JLINK_IsHalted()  returns FALSE (0001ms, 0815ms total)
T1C94 001:216 JLINK_IsHalted()  returns FALSE (0000ms, 0814ms total)
T1C94 001:218 JLINK_IsHalted()  returns FALSE (0001ms, 0815ms total)
T1C94 001:220 JLINK_IsHalted()  returns FALSE (0001ms, 0815ms total)
T1C94 001:222 JLINK_IsHalted()  returns FALSE (0000ms, 0814ms total)
T1C94 001:224 JLINK_IsHalted()  returns FALSE (0001ms, 0815ms total)
T1C94 001:226 JLINK_IsHalted()  returns FALSE (0001ms, 0816ms total)
T1C94 001:228 JLINK_IsHalted()  returns FALSE (0000ms, 0815ms total)
T1C94 001:230 JLINK_IsHalted()  returns FALSE (0000ms, 0815ms total)
T1C94 001:232 JLINK_IsHalted()  returns FALSE (0000ms, 0815ms total)
T1C94 001:234 JLINK_IsHalted()  returns FALSE (0001ms, 0816ms total)
T1C94 001:236 JLINK_IsHalted()  returns FALSE (0001ms, 0816ms total)
T1C94 001:238 JLINK_IsHalted()  returns FALSE (0001ms, 0816ms total)
T1C94 001:240 JLINK_IsHalted()  returns FALSE (0001ms, 0816ms total)
T1C94 001:242 JLINK_IsHalted()  returns FALSE (0001ms, 0816ms total)
T1C94 001:244 JLINK_IsHalted()  returns FALSE (0001ms, 0816ms total)
T1C94 001:258 JLINK_IsHalted()  returns FALSE (0001ms, 0816ms total)
T1C94 001:260 JLINK_IsHalted()  returns FALSE (0001ms, 0816ms total)
T1C94 001:262 JLINK_IsHalted()  returns FALSE (0001ms, 0816ms total)
T1C94 001:264 JLINK_IsHalted()  returns FALSE (0001ms, 0816ms total)
T1C94 001:266 JLINK_IsHalted()  returns TRUE (0007ms, 0822ms total)
T1C94 001:273 JLINK_ReadReg(R15 (PC))  returns 0x00200000 (0000ms, 0815ms total)
T1C94 001:273 JLINK_ClrBPEx(BPHandle = 0x00000009)  returns 0x00 (0000ms, 0815ms total)
T1C94 001:273 JLINK_ReadReg(R0)  returns 0x00000000 (0000ms, 0815ms total)
T1C94 001:273 JLINK_WriteReg(R0, 0x00812000)  returns 0x00 (0000ms, 0815ms total)
T1C94 001:273 JLINK_WriteReg(R1, 0x00001000)  returns 0x00 (0000ms, 0815ms total)
T1C94 001:273 JLINK_WriteReg(R2, 0x000000FF)  returns 0x00 (0000ms, 0815ms total)
T1C94 001:273 JLINK_WriteReg(R3, 0x00000000)  returns 0x00 (0001ms, 0816ms total)
T1C94 001:274 JLINK_WriteReg(R4, 0x00000000)  returns 0x00 (0000ms, 0816ms total)
T1C94 001:274 JLINK_WriteReg(R5, 0x00000000)  returns 0x00 (0000ms, 0816ms total)
T1C94 001:274 JLINK_WriteReg(R6, 0x00000000)  returns 0x00 (0000ms, 0816ms total)
T1C94 001:274 JLINK_WriteReg(R7, 0x00000000)  returns 0x00 (0000ms, 0816ms total)
T1C94 001:274 JLINK_WriteReg(R8, 0x00000000)  returns 0x00 (0000ms, 0816ms total)
T1C94 001:274 JLINK_WriteReg(R9, 0x002012E4)  returns 0x00 (0000ms, 0816ms total)
T1C94 001:274 JLINK_WriteReg(R10, 0x00000000)  returns 0x00 (0000ms, 0816ms total)
T1C94 001:274 JLINK_WriteReg(R11, 0x00000000)  returns 0x00 (0000ms, 0816ms total)
T1C94 001:274 JLINK_WriteReg(R12, 0x00000000)  returns 0x00 (0000ms, 0816ms total)
T1C94 001:274 JLINK_WriteReg(R13 (SP), 0x00204000)  returns 0x00 (0000ms, 0816ms total)
T1C94 001:274 JLINK_WriteReg(R14, 0x00200001)  returns 0x00 (0000ms, 0816ms total)
T1C94 001:274 JLINK_WriteReg(R15 (PC), 0x00200020)  returns 0x00 (0000ms, 0816ms total)
T1C94 001:274 JLINK_WriteReg(XPSR, 0x01000000)  returns 0x00 (0000ms, 0816ms total)
T1C94 001:274 JLINK_WriteReg(MSP, 0x00204000)  returns 0x00 (0000ms, 0816ms total)
T1C94 001:274 JLINK_WriteReg(PSP, 0x00204000)  returns 0x00 (0000ms, 0816ms total)
T1C94 001:274 JLINK_WriteReg(CFBP, 0x00000000)  returns 0x00 (0000ms, 0816ms total)
T1C94 001:274 JLINK_SetBPEx(Addr = 0x00200000, Type = 0xFFFFFFF2)  returns 0x0000000A (0000ms, 0816ms total)
T1C94 001:274 JLINK_Go() -- CPU_WriteMem(4 bytes @ 0xE0002000) -- CPU_ReadMem(4 bytes @ 0xE0001000) (0006ms, 0822ms total)
T1C94 001:280 JLINK_IsHalted()  returns TRUE (0007ms, 0829ms total)
T1C94 001:287 JLINK_ReadReg(R15 (PC))  returns 0x00200000 (0000ms, 0822ms total)
T1C94 001:287 JLINK_ClrBPEx(BPHandle = 0x0000000A)  returns 0x00 (0000ms, 0822ms total)
T1C94 001:287 JLINK_ReadReg(R0)  returns 0x00000001 (0000ms, 0822ms total)
T1C94 001:287 JLINK_WriteReg(R0, 0x00812000)  returns 0x00 (0000ms, 0822ms total)
T1C94 001:287 JLINK_WriteReg(R1, 0x00001000)  returns 0x00 (0000ms, 0822ms total)
T1C94 001:287 JLINK_WriteReg(R2, 0x000000FF)  returns 0x00 (0000ms, 0822ms total)
T1C94 001:287 JLINK_WriteReg(R3, 0x00000000)  returns 0x00 (0000ms, 0822ms total)
T1C94 001:287 JLINK_WriteReg(R4, 0x00000000)  returns 0x00 (0000ms, 0822ms total)
T1C94 001:287 JLINK_WriteReg(R5, 0x00000000)  returns 0x00 (0000ms, 0822ms total)
T1C94 001:287 JLINK_WriteReg(R6, 0x00000000)  returns 0x00 (0000ms, 0822ms total)
T1C94 001:287 JLINK_WriteReg(R7, 0x00000000)  returns 0x00 (0000ms, 0822ms total)
T1C94 001:287 JLINK_WriteReg(R8, 0x00000000)  returns 0x00 (0000ms, 0822ms total)
T1C94 001:287 JLINK_WriteReg(R9, 0x002012E4)  returns 0x00 (0000ms, 0822ms total)
T1C94 001:287 JLINK_WriteReg(R10, 0x00000000)  returns 0x00 (0000ms, 0822ms total)
T1C94 001:287 JLINK_WriteReg(R11, 0x00000000)  returns 0x00 (0000ms, 0822ms total)
T1C94 001:287 JLINK_WriteReg(R12, 0x00000000)  returns 0x00 (0000ms, 0822ms total)
T1C94 001:287 JLINK_WriteReg(R13 (SP), 0x00204000)  returns 0x00 (0000ms, 0822ms total)
T1C94 001:287 JLINK_WriteReg(R14, 0x00200001)  returns 0x00 (0000ms, 0822ms total)
T1C94 001:287 JLINK_WriteReg(R15 (PC), 0x00200094)  returns 0x00 (0000ms, 0822ms total)
T1C94 001:287 JLINK_WriteReg(XPSR, 0x01000000)  returns 0x00 (0000ms, 0822ms total)
T1C94 001:287 JLINK_WriteReg(MSP, 0x00204000)  returns 0x00 (0000ms, 0822ms total)
T1C94 001:287 JLINK_WriteReg(PSP, 0x00204000)  returns 0x00 (0000ms, 0822ms total)
T1C94 001:287 JLINK_WriteReg(CFBP, 0x00000000)  returns 0x00 (0000ms, 0822ms total)
T1C94 001:287 JLINK_SetBPEx(Addr = 0x00200000, Type = 0xFFFFFFF2)  returns 0x0000000B (0000ms, 0822ms total)
T1C94 001:287 JLINK_Go() -- CPU_WriteMem(4 bytes @ 0xE0002000) -- CPU_ReadMem(4 bytes @ 0xE0001000) (0005ms, 0827ms total)
T1C94 001:292 JLINK_IsHalted()  returns FALSE (0001ms, 0828ms total)
T1C94 001:294 JLINK_IsHalted()  returns FALSE (0001ms, 0828ms total)
T1C94 001:296 JLINK_IsHalted()  returns FALSE (0000ms, 0827ms total)
T1C94 001:297 JLINK_IsHalted()  returns FALSE (0000ms, 0827ms total)
T1C94 001:298 JLINK_IsHalted()  returns FALSE (0000ms, 0827ms total)
T1C94 001:299 JLINK_IsHalted()  returns FALSE (0000ms, 0827ms total)
T1C94 001:301 JLINK_IsHalted()  returns FALSE (0000ms, 0827ms total)
T1C94 001:302 JLINK_IsHalted()  returns FALSE (0001ms, 0828ms total)
T1C94 001:304 JLINK_IsHalted()  returns FALSE (0001ms, 0828ms total)
T1C94 001:306 JLINK_IsHalted()  returns FALSE (0001ms, 0828ms total)
T1C94 001:308 JLINK_IsHalted()  returns FALSE (0001ms, 0828ms total)
T1C94 001:310 JLINK_IsHalted()  returns FALSE (0001ms, 0828ms total)
T1C94 001:312 JLINK_IsHalted()  returns FALSE (0001ms, 0828ms total)
T1C94 001:314 JLINK_IsHalted()  returns FALSE (0001ms, 0828ms total)
T1C94 001:316 JLINK_IsHalted()  returns FALSE (0001ms, 0828ms total)
T1C94 001:318 JLINK_IsHalted()  returns FALSE (0000ms, 0827ms total)
T1C94 001:320 JLINK_IsHalted()  returns FALSE (0001ms, 0828ms total)
T1C94 001:322 JLINK_IsHalted()  returns FALSE (0001ms, 0828ms total)
T1C94 001:324 JLINK_IsHalted()  returns FALSE (0001ms, 0828ms total)
T1C94 001:326 JLINK_IsHalted()  returns FALSE (0001ms, 0828ms total)
T1C94 001:328 JLINK_IsHalted()  returns FALSE (0001ms, 0828ms total)
T1C94 001:330 JLINK_IsHalted()  returns FALSE (0001ms, 0828ms total)
T1C94 001:332 JLINK_IsHalted()  returns FALSE (0001ms, 0828ms total)
T1C94 001:334 JLINK_IsHalted()  returns FALSE (0001ms, 0828ms total)
T1C94 001:336 JLINK_IsHalted()  returns FALSE (0001ms, 0828ms total)
T1C94 001:338 JLINK_IsHalted()  returns FALSE (0001ms, 0828ms total)
T1C94 001:340 JLINK_IsHalted()  returns FALSE (0001ms, 0828ms total)
T1C94 001:342 JLINK_IsHalted()  returns FALSE (0001ms, 0828ms total)
T1C94 001:344 JLINK_IsHalted()  returns TRUE (0007ms, 0834ms total)
T1C94 001:351 JLINK_ReadReg(R15 (PC))  returns 0x00200000 (0000ms, 0827ms total)
T1C94 001:351 JLINK_ClrBPEx(BPHandle = 0x0000000B)  returns 0x00 (0000ms, 0827ms total)
T1C94 001:351 JLINK_ReadReg(R0)  returns 0x00000000 (0000ms, 0827ms total)
T1C94 001:351 JLINK_WriteReg(R0, 0x00813000)  returns 0x00 (0000ms, 0827ms total)
T1C94 001:351 JLINK_WriteReg(R1, 0x00001000)  returns 0x00 (0001ms, 0828ms total)
T1C94 001:352 JLINK_WriteReg(R2, 0x000000FF)  returns 0x00 (0000ms, 0828ms total)
T1C94 001:352 JLINK_WriteReg(R3, 0x00000000)  returns 0x00 (0000ms, 0828ms total)
T1C94 001:352 JLINK_WriteReg(R4, 0x00000000)  returns 0x00 (0000ms, 0828ms total)
T1C94 001:352 JLINK_WriteReg(R5, 0x00000000)  returns 0x00 (0000ms, 0828ms total)
T1C94 001:352 JLINK_WriteReg(R6, 0x00000000)  returns 0x00 (0000ms, 0828ms total)
T1C94 001:352 JLINK_WriteReg(R7, 0x00000000)  returns 0x00 (0000ms, 0828ms total)
T1C94 001:352 JLINK_WriteReg(R8, 0x00000000)  returns 0x00 (0000ms, 0828ms total)
T1C94 001:352 JLINK_WriteReg(R9, 0x002012E4)  returns 0x00 (0000ms, 0828ms total)
T1C94 001:352 JLINK_WriteReg(R10, 0x00000000)  returns 0x00 (0000ms, 0828ms total)
T1C94 001:352 JLINK_WriteReg(R11, 0x00000000)  returns 0x00 (0000ms, 0828ms total)
T1C94 001:352 JLINK_WriteReg(R12, 0x00000000)  returns 0x00 (0000ms, 0828ms total)
T1C94 001:352 JLINK_WriteReg(R13 (SP), 0x00204000)  returns 0x00 (0000ms, 0828ms total)
T1C94 001:352 JLINK_WriteReg(R14, 0x00200001)  returns 0x00 (0000ms, 0828ms total)
T1C94 001:352 JLINK_WriteReg(R15 (PC), 0x00200020)  returns 0x00 (0000ms, 0828ms total)
T1C94 001:352 JLINK_WriteReg(XPSR, 0x01000000)  returns 0x00 (0000ms, 0828ms total)
T1C94 001:352 JLINK_WriteReg(MSP, 0x00204000)  returns 0x00 (0000ms, 0828ms total)
T1C94 001:352 JLINK_WriteReg(PSP, 0x00204000)  returns 0x00 (0000ms, 0828ms total)
T1C94 001:352 JLINK_WriteReg(CFBP, 0x00000000)  returns 0x00 (0000ms, 0828ms total)
T1C94 001:352 JLINK_SetBPEx(Addr = 0x00200000, Type = 0xFFFFFFF2)  returns 0x0000000C (0000ms, 0828ms total)
T1C94 001:352 JLINK_Go() -- CPU_WriteMem(4 bytes @ 0xE0002000) -- CPU_ReadMem(4 bytes @ 0xE0001000) (0006ms, 0834ms total)
T1C94 001:358 JLINK_IsHalted()  returns TRUE (0007ms, 0841ms total)
T1C94 001:365 JLINK_ReadReg(R15 (PC))  returns 0x00200000 (0000ms, 0834ms total)
T1C94 001:365 JLINK_ClrBPEx(BPHandle = 0x0000000C)  returns 0x00 (0000ms, 0834ms total)
T1C94 001:365 JLINK_ReadReg(R0)  returns 0x00000001 (0000ms, 0834ms total)
T1C94 001:365 JLINK_WriteReg(R0, 0x00813000)  returns 0x00 (0000ms, 0834ms total)
T1C94 001:365 JLINK_WriteReg(R1, 0x00001000)  returns 0x00 (0000ms, 0834ms total)
T1C94 001:365 JLINK_WriteReg(R2, 0x000000FF)  returns 0x00 (0000ms, 0834ms total)
T1C94 001:365 JLINK_WriteReg(R3, 0x00000000)  returns 0x00 (0000ms, 0834ms total)
T1C94 001:365 JLINK_WriteReg(R4, 0x00000000)  returns 0x00 (0000ms, 0834ms total)
T1C94 001:365 JLINK_WriteReg(R5, 0x00000000)  returns 0x00 (0000ms, 0834ms total)
T1C94 001:365 JLINK_WriteReg(R6, 0x00000000)  returns 0x00 (0000ms, 0834ms total)
T1C94 001:365 JLINK_WriteReg(R7, 0x00000000)  returns 0x00 (0000ms, 0834ms total)
T1C94 001:365 JLINK_WriteReg(R8, 0x00000000)  returns 0x00 (0000ms, 0834ms total)
T1C94 001:365 JLINK_WriteReg(R9, 0x002012E4)  returns 0x00 (0000ms, 0834ms total)
T1C94 001:365 JLINK_WriteReg(R10, 0x00000000)  returns 0x00 (0000ms, 0834ms total)
T1C94 001:365 JLINK_WriteReg(R11, 0x00000000)  returns 0x00 (0000ms, 0834ms total)
T1C94 001:365 JLINK_WriteReg(R12, 0x00000000)  returns 0x00 (0000ms, 0834ms total)
T1C94 001:365 JLINK_WriteReg(R13 (SP), 0x00204000)  returns 0x00 (0000ms, 0834ms total)
T1C94 001:365 JLINK_WriteReg(R14, 0x00200001)  returns 0x00 (0000ms, 0834ms total)
T1C94 001:365 JLINK_WriteReg(R15 (PC), 0x00200094)  returns 0x00 (0000ms, 0834ms total)
T1C94 001:365 JLINK_WriteReg(XPSR, 0x01000000)  returns 0x00 (0000ms, 0834ms total)
T1C94 001:365 JLINK_WriteReg(MSP, 0x00204000)  returns 0x00 (0000ms, 0834ms total)
T1C94 001:365 JLINK_WriteReg(PSP, 0x00204000)  returns 0x00 (0000ms, 0834ms total)
T1C94 001:365 JLINK_WriteReg(CFBP, 0x00000000)  returns 0x00 (0000ms, 0834ms total)
T1C94 001:365 JLINK_SetBPEx(Addr = 0x00200000, Type = 0xFFFFFFF2)  returns 0x0000000D (0000ms, 0834ms total)
T1C94 001:365 JLINK_Go() -- CPU_WriteMem(4 bytes @ 0xE0002000) -- CPU_ReadMem(4 bytes @ 0xE0001000) (0005ms, 0839ms total)
T1C94 001:370 JLINK_IsHalted()  returns FALSE (0001ms, 0840ms total)
T1C94 001:384 JLINK_IsHalted()  returns FALSE (0001ms, 0840ms total)
T1C94 001:386 JLINK_IsHalted()  returns FALSE (0001ms, 0840ms total)
T1C94 001:388 JLINK_IsHalted()  returns FALSE (0001ms, 0840ms total)
T1C94 001:390 JLINK_IsHalted()  returns FALSE (0001ms, 0840ms total)
T1C94 001:392 JLINK_IsHalted()  returns FALSE (0001ms, 0840ms total)
T1C94 001:394 JLINK_IsHalted()  returns FALSE (0001ms, 0840ms total)
T1C94 001:396 JLINK_IsHalted()  returns FALSE (0001ms, 0840ms total)
T1C94 001:398 JLINK_IsHalted()  returns FALSE (0000ms, 0839ms total)
T1C94 001:399 JLINK_IsHalted()  returns FALSE (0001ms, 0840ms total)
T1C94 001:401 JLINK_IsHalted()  returns FALSE (0001ms, 0840ms total)
T1C94 001:403 JLINK_IsHalted()  returns FALSE (0001ms, 0841ms total)
T1C94 001:412 JLINK_IsHalted()  returns FALSE (0001ms, 0841ms total)
T1C94 001:414 JLINK_IsHalted()  returns FALSE (0001ms, 0841ms total)
T1C94 001:416 JLINK_IsHalted()  returns FALSE (0001ms, 0841ms total)
T1C94 001:418 JLINK_IsHalted()  returns FALSE (0001ms, 0841ms total)
T1C94 001:420 JLINK_IsHalted()  returns FALSE (0001ms, 0841ms total)
T1C94 001:422 JLINK_IsHalted()  returns FALSE (0001ms, 0841ms total)
T1C94 001:424 JLINK_IsHalted()  returns TRUE (0007ms, 0847ms total)
T1C94 001:431 JLINK_ReadReg(R15 (PC))  returns 0x00200000 (0000ms, 0840ms total)
T1C94 001:431 JLINK_ClrBPEx(BPHandle = 0x0000000D)  returns 0x00 (0000ms, 0840ms total)
T1C94 001:431 JLINK_ReadReg(R0)  returns 0x00000000 (0000ms, 0840ms total)
T1C94 001:431 JLINK_WriteReg(R0, 0x00814000)  returns 0x00 (0000ms, 0840ms total)
T1C94 001:431 JLINK_WriteReg(R1, 0x00001000)  returns 0x00 (0000ms, 0840ms total)
T1C94 001:431 JLINK_WriteReg(R2, 0x000000FF)  returns 0x00 (0000ms, 0840ms total)
T1C94 001:431 JLINK_WriteReg(R3, 0x00000000)  returns 0x00 (0001ms, 0841ms total)
T1C94 001:432 JLINK_WriteReg(R4, 0x00000000)  returns 0x00 (0000ms, 0841ms total)
T1C94 001:432 JLINK_WriteReg(R5, 0x00000000)  returns 0x00 (0000ms, 0841ms total)
T1C94 001:432 JLINK_WriteReg(R6, 0x00000000)  returns 0x00 (0000ms, 0841ms total)
T1C94 001:432 JLINK_WriteReg(R7, 0x00000000)  returns 0x00 (0000ms, 0841ms total)
T1C94 001:432 JLINK_WriteReg(R8, 0x00000000)  returns 0x00 (0000ms, 0841ms total)
T1C94 001:432 JLINK_WriteReg(R9, 0x002012E4)  returns 0x00 (0000ms, 0841ms total)
T1C94 001:432 JLINK_WriteReg(R10, 0x00000000)  returns 0x00 (0000ms, 0841ms total)
T1C94 001:432 JLINK_WriteReg(R11, 0x00000000)  returns 0x00 (0000ms, 0841ms total)
T1C94 001:432 JLINK_WriteReg(R12, 0x00000000)  returns 0x00 (0000ms, 0841ms total)
T1C94 001:432 JLINK_WriteReg(R13 (SP), 0x00204000)  returns 0x00 (0000ms, 0841ms total)
T1C94 001:432 JLINK_WriteReg(R14, 0x00200001)  returns 0x00 (0000ms, 0841ms total)
T1C94 001:432 JLINK_WriteReg(R15 (PC), 0x00200020)  returns 0x00 (0000ms, 0841ms total)
T1C94 001:432 JLINK_WriteReg(XPSR, 0x01000000)  returns 0x00 (0000ms, 0841ms total)
T1C94 001:432 JLINK_WriteReg(MSP, 0x00204000)  returns 0x00 (0000ms, 0841ms total)
T1C94 001:432 JLINK_WriteReg(PSP, 0x00204000)  returns 0x00 (0000ms, 0841ms total)
T1C94 001:432 JLINK_WriteReg(CFBP, 0x00000000)  returns 0x00 (0000ms, 0841ms total)
T1C94 001:432 JLINK_SetBPEx(Addr = 0x00200000, Type = 0xFFFFFFF2)  returns 0x0000000E (0000ms, 0841ms total)
T1C94 001:432 JLINK_Go() -- CPU_WriteMem(4 bytes @ 0xE0002000) -- CPU_ReadMem(4 bytes @ 0xE0001000) (0006ms, 0847ms total)
T1C94 001:438 JLINK_IsHalted()  returns TRUE (0007ms, 0854ms total)
T1C94 001:445 JLINK_ReadReg(R15 (PC))  returns 0x00200000 (0000ms, 0847ms total)
T1C94 001:445 JLINK_ClrBPEx(BPHandle = 0x0000000E)  returns 0x00 (0000ms, 0847ms total)
